
T08E4 000:002 SEGGER J-Link V6.16a Log File (0001ms, 0003ms total)
T08E4 000:002 DLL Compiled: Jun  6 2017 12:42:51 (0001ms, 0003ms total)
T08E4 000:002 Logging started @ 2018-01-11 16:43 (0001ms, 0003ms total)
T08E4 000:003 JLINK_SetWarnOutHandler(...) (0000ms, 0003ms total)
T08E4 000:003 JLINK_OpenEx(...)
Firmware: J-Link V9 compiled Jul 24 2017 17:37:57
Hardware: V9.40
S/N: 59400008
Feature(s): GDB, RDI, FlashBP, FlashDL, JFlashWEBSRV Webserver running on local port 19080 (0023ms, 0026ms total)
T08E4 000:003   returns O.K. (0023ms, 0026ms total)
T08E4 000:026 JLINK_GetEmuCaps()  returns 0xB9FF7BBF (0000ms, 0026ms total)
T08E4 000:026 JLINK_TIF_GetAvailable(...) (0000ms, 0026ms total)
T08E4 000:026 JLINK_SetErrorOutHandler(...) (0000ms, 0026ms total)
T08E4 000:026 JLINK_ExecCommand("ProjectFile = "C:\GitHub\fw-aider-a2\nRF5_SDK_14.1.0\src_aider\ble_peripheral\ble_app_aider_a2_dfu_tester\pca10040\s132\arm5_no_packs\JLinkSettings.ini"", ...). C:\Program Files (x86)\SEGGER\JLink_V616a\JLinkDevices.xml evaluated successfully.  returns 0x00 (0107ms, 0133ms total)
T08E4 000:136 JLINK_ExecCommand("Device = nRF52832_xxAA", ...). Device "NRF52832_XXAA" selected.  returns 0x00 (0009ms, 0142ms total)
T08E4 000:145 JLINK_ExecCommand("DisableConnectionTimeout", ...).   returns 0x01 (0000ms, 0142ms total)
T08E4 000:145 JLINK_GetHardwareVersion()  returns 0x16F30 (0000ms, 0142ms total)
T08E4 000:145 JLINK_GetDLLVersion()  returns 61601 (0000ms, 0142ms total)
T08E4 000:145 JLINK_GetFirmwareString(...) (0000ms, 0142ms total)
T08E4 000:154 JLINK_GetDLLVersion()  returns 61601 (0000ms, 0142ms total)
T08E4 000:154 JLINK_GetCompileDateTime() (0000ms, 0142ms total)
T08E4 000:157 JLINK_GetFirmwareString(...) (0000ms, 0142ms total)
T08E4 000:164 JLINK_GetHardwareVersion()  returns 0x16F30 (0000ms, 0142ms total)
T08E4 000:174 JLINK_TIF_Select(JLINKARM_TIF_SWD)  returns 0x00 (0000ms, 0142ms total)
T08E4 000:174 JLINK_SetSpeed(5000) (0000ms, 0142ms total)
T08E4 000:174 JLINK_GetId() >0x10B TIF> >0x10F TIF> >0x10B TIF> >0x10F TIF> >0x10B TIF>Found SW-DP with ID 0x2BA01477 >0x0D TIF> >0x28 TIF> >0x0D TIF> >0x28 TIF>SWD speed too high. Reduced from 4000 kHz to 2700 kHz for stability >0x0D TIF> >0x28 TIF> >0x0D TIF> >0x28 TIF> >0x0D TIF> >0x28 TIF> >0x0D TIF> >0x28 TIF> >0x35 TIF> >0x35 TIF> >0x0D TIF> >0x28 TIF> >0x35 TIF> >0x35 TIF> >0x10B TIF>Found SW-DP with ID 0x2BA01477 >0x0D TIF> >0x28 TIF> >0x0D TIF> >0x28 TIF> >0x0D TIF> >0x28 TIF> >0x0D TIF>
 >0x28 TIF> >0x35 TIF> >0x0D TIF> >0x28 TIF>Scanning APs, stopping at first AHB-AP found. >0x0D TIF> >0x28 TIF> >0x35 TIF> >0x35 TIF>AP[0] IDR: 0x24770011 (AHB-AP) >0x0D TIF> >0x28 TIF> >0x35 TIF> >0x35 TIF>AHB-AP ROM: 0xE00FF000 (Base addr. of first ROM table) >0x0D TIF> >0x28 TIF> >0x0D TIF> >0x28 TIF> >0x0D TIF> >0x28 TIF> >0x35 TIF> >0x35 TIF> >0x0D TIF> >0x28 TIF> >0x35 TIF> >0x35 TIF>CPUID reg: 0x410FC241. Implementer code: 0x41 (ARM)Found Cortex-M4 r0p1, Little endian.
 -- CPU_ReadMem(4 bytes @ 0xE000EDF0) -- CPU_WriteMem(4 bytes @ 0xE000EDF0) -- CPU_ReadMem(4 bytes @ 0xE0002000)FPUnit: 6 code (BP) slots and 2 literal slots -- CPU_ReadMem(4 bytes @ 0xE000EDFC) -- CPU_WriteMem(4 bytes @ 0xE000EDFC) -- CPU_ReadMem(4 bytes @ 0xE0001000) -- CPU_WriteMem(4 bytes @ 0xE0001000) -- CPU_ReadMem(4 bytes @ 0xE000ED88) -- CPU_WriteMem(4 bytes @ 0xE000ED88) -- CPU_ReadMem(4 bytes @ 0xE000ED88) -- CPU_WriteMem(4 bytes @ 0xE000ED88)CoreSight components:ROMTbl[0] @ E00FF000
 -- CPU_ReadMem(16 bytes @ 0xE00FF000) -- CPU_ReadMem(16 bytes @ 0xE000EFF0) -- CPU_ReadMem(16 bytes @ 0xE000EFE0)ROMTbl[0][0]: E000E000, CID: B105E00D, PID: 000BB00C SCS -- CPU_ReadMem(16 bytes @ 0xE0001FF0) -- CPU_ReadMem(16 bytes @ 0xE0001FE0)ROMTbl[0][1]: E0001000, CID: B105E00D, PID: 003BB002 DWT -- CPU_ReadMem(16 bytes @ 0xE0002FF0) -- CPU_ReadMem(16 bytes @ 0xE0002FE0)ROMTbl[0][2]: E0002000, CID: B105E00D, PID: 002BB003 FPB -- CPU_ReadMem(16 bytes @ 0xE0000FF0)
 -- CPU_ReadMem(16 bytes @ 0xE0000FE0)ROMTbl[0][3]: E0000000, CID: B105E00D, PID: 003BB001 ITM -- CPU_ReadMem(16 bytes @ 0xE00FF010) -- CPU_ReadMem(16 bytes @ 0xE0040FF0) -- CPU_ReadMem(16 bytes @ 0xE0040FE0)ROMTbl[0][4]: E0040000, CID: B105900D, PID: 000BB9A1 TPIU -- CPU_ReadMem(16 bytes @ 0xE0041FF0) -- CPU_ReadMem(16 bytes @ 0xE0041FE0)ROMTbl[0][5]: E0041000, CID: B105900D, PID: 000BB925 ETM >0x35 TIF>  returns 0x2BA01477 (0210ms, 0352ms total)
T08E4 000:384 JLINK_GetDLLVersion()  returns 61601 (0000ms, 0352ms total)
T08E4 000:384 JLINK_CORE_GetFound()  returns 0xE0000FF (0000ms, 0352ms total)
T08E4 000:384 JLINK_GetDebugInfo(0x100 = JLINKARM_ROM_TABLE_ADDR_INDEX) -- Value=0xE00FF000  returns 0x00 (0000ms, 0352ms total)
T08E4 000:387 JLINK_GetDebugInfo(0x100 = JLINKARM_ROM_TABLE_ADDR_INDEX) -- Value=0xE00FF000  returns 0x00 (0000ms, 0352ms total)
T08E4 000:387 JLINK_GetDebugInfo(0x101 = JLINKARM_DEBUG_INFO_ETM_ADDR_INDEX) -- Value=0xE0041000  returns 0x00 (0000ms, 0352ms total)
T08E4 000:387 JLINK_ReadMemEx(0xE0041FD0, 0x0020 Bytes, ..., Flags = 0x02000004) -- CPU_ReadMem(32 bytes @ 0xE0041FD0) - Data: 04 00 00 00 00 00 00 00 00 00 00 00 00 00 00 00 ...  returns 0x20 (0000ms, 0352ms total)
T08E4 000:387 JLINK_GetDebugInfo(0x102 = JLINKARM_DEBUG_INFO_MTB_ADDR_INDEX) -- Value=0x00000000  returns 0x00 (0000ms, 0352ms total)
T08E4 000:387 JLINK_GetDebugInfo(0x103 = JLINKARM_DEBUG_INFO_TPIU_ADDR_INDEX) -- Value=0xE0040000  returns 0x00 (0000ms, 0352ms total)
T08E4 000:387 JLINK_GetDebugInfo(0x104 = JLINKARM_DEBUG_INFO_ITM_ADDR_INDEX) -- Value=0xE0000000  returns 0x00 (0000ms, 0352ms total)
T08E4 000:387 JLINK_GetDebugInfo(0x105 = JLINKARM_DEBUG_INFO_DWT_ADDR_INDEX) -- Value=0xE0001000  returns 0x00 (0000ms, 0352ms total)
T08E4 000:387 JLINK_GetDebugInfo(0x106 = JLINKARM_DEBUG_INFO_FPB_ADDR_INDEX) -- Value=0xE0002000  returns 0x00 (0000ms, 0352ms total)
T08E4 000:387 JLINK_GetDebugInfo(0x107 = JLINKARM_DEBUG_INFO_NVIC_ADDR_INDEX) -- Value=0xE000E000  returns 0x00 (0000ms, 0352ms total)
T08E4 000:387 JLINK_GetDebugInfo(0x10C = JLINKARM_DEBUG_INFO_DBG_ADDR_INDEX) -- Value=0xE000EDF0  returns 0x00 (0000ms, 0352ms total)
T08E4 000:387 JLINK_ReadMemU32(0xE000EF40, 0x0001 Items, ...) -- CPU_ReadMem(4 bytes @ 0xE000EF40) - Data: 21 00 11 10  returns 0x01 (0001ms, 0353ms total)
T08E4 000:388 JLINK_ReadMemU32(0xE000EF44, 0x0001 Items, ...) -- CPU_ReadMem(4 bytes @ 0xE000EF44) - Data: 11 00 00 11  returns 0x01 (0000ms, 0353ms total)
T08E4 000:388 JLINK_ReadMemU32(0xE000ED00, 0x0001 Items, ...) -- CPU_ReadMem(4 bytes @ 0xE000ED00) - Data: 41 C2 0F 41  returns 0x01 (0001ms, 0354ms total)
T08E4 000:389 JLINK_GetDebugInfo(0x10F = JLINKARM_DEBUG_INFO_HAS_CORTEX_M_SECURITY_EXT_INDEX) -- Value=0x00000000  returns 0x00 (0000ms, 0354ms total)
T08E4 000:389 JLINK_SetResetType(JLINKARM_CM3_RESET_TYPE_NORMAL)  returns JLINKARM_CM3_RESET_TYPE_NORMAL (0000ms, 0354ms total)
T08E4 000:389 JLINK_Reset() -- CPU is running -- CPU_WriteMem(4 bytes @ 0xE000EDF0) -- CPU is running -- CPU_WriteMem(4 bytes @ 0xE000EDFC) >0x35 TIF>Setting AIRCR.SYSRESETREQ -- CPU is running -- CPU_WriteMem(4 bytes @ 0xE000ED0C) >0x0D TIF> >0x28 TIF> -- CPU_ReadMem(4 bytes @ 0xE000ED0C) -- CPU_ReadMem(4 bytes @ 0xE000EDF0) -- CPU_ReadMem(4 bytes @ 0xE000EDF0) -- CPU_ReadMem(4 bytes @ 0xE000EDF0) -- CPU is running -- CPU_WriteMem(4 bytes @ 0xE000EDF0) -- CPU is running
 -- CPU_WriteMem(4 bytes @ 0xE000EDFC) -- CPU_ReadMem(4 bytes @ 0xE000EDF0) -- CPU_WriteMem(4 bytes @ 0xE0002000) -- CPU_ReadMem(4 bytes @ 0xE000EDFC) -- CPU_ReadMem(4 bytes @ 0xE0001000) (0069ms, 0423ms total)
T08E4 000:458 JLINK_Halt()  returns 0x00 (0000ms, 0423ms total)
T08E4 000:458 JLINK_ReadMemU32(0xE000EDF0, 0x0001 Items, ...) -- CPU_ReadMem(4 bytes @ 0xE000EDF0) - Data: 03 00 03 00  returns 0x01 (0001ms, 0424ms total)
T08E4 000:459 JLINK_WriteU32(0xE000EDF0, 0xA05F0003) -- CPU_WriteMem(4 bytes @ 0xE000EDF0)  returns 0x00 (0000ms, 0424ms total)
T08E4 000:459 JLINK_WriteU32(0xE000EDFC, 0x01000000) -- CPU_WriteMem(4 bytes @ 0xE000EDFC)  returns 0x00 (0001ms, 0425ms total)
T08E4 000:493 JLINK_GetHWStatus(...)  returns 0x00 (0000ms, 0425ms total)
T08E4 000:507 JLINK_GetNumBPUnits(Type = 0xFFFFFF00)  returns 0x06 (0000ms, 0425ms total)
T08E4 000:507 JLINK_GetNumBPUnits(Type = 0xF0)  returns 0x2000 (0001ms, 0426ms total)
T08E4 000:508 JLINK_GetNumWPUnits()  returns 0x04 (0000ms, 0426ms total)
T08E4 000:523 JLINK_GetSpeed()  returns 0x960 (0001ms, 0427ms total)
T08E4 000:533 JLINK_ReadMemU32(0xE000E004, 0x0001 Items, ...) -- CPU_ReadMem(4 bytes @ 0xE000E004) - Data: 01 00 00 00  returns 0x01 (0001ms, 0428ms total)
T08E4 000:534 JLINK_ReadMemU32(0xE000E004, 0x0001 Items, ...) -- CPU_ReadMem(4 bytes @ 0xE000E004) - Data: 01 00 00 00  returns 0x01 (0000ms, 0428ms total)
T08E4 000:534 JLINK_WriteMemEx(0xE0001000, 0x001C Bytes, ..., Flags = 0x02000004) - Data: 01 00 00 00 00 00 00 00 00 00 00 00 00 00 00 00 ... -- CPU_WriteMem(28 bytes @ 0xE0001000)  returns 0x1C (0001ms, 0429ms total)
T08E4 000:535 JLINK_Halt()  returns 0x00 (0000ms, 0429ms total)
T08E4 000:535 JLINK_IsHalted()  returns TRUE (0000ms, 0429ms total)
T08E4 000:539 JLINK_WriteMem(0x20000000, 0x0234 Bytes, ...) - Data: 00 BE 0A E0 0D 78 2D 06 68 40 08 24 40 00 00 D3 ... -- CPU_WriteMem(564 bytes @ 0x20000000)  returns 0x234 (0004ms, 0433ms total)
T08E4 000:543 JLINK_WriteReg(R0, 0x00000000)  returns 0x00 (0000ms, 0433ms total)
T08E4 000:543 JLINK_WriteReg(R1, 0x03D09000)  returns 0x00 (0000ms, 0433ms total)
T08E4 000:543 JLINK_WriteReg(R2, 0x00000001)  returns 0x00 (0000ms, 0433ms total)
T08E4 000:543 JLINK_WriteReg(R3, 0x00000000)  returns 0x00 (0000ms, 0433ms total)
T08E4 000:543 JLINK_WriteReg(R4, 0x00000000)  returns 0x00 (0000ms, 0433ms total)
T08E4 000:543 JLINK_WriteReg(R5, 0x00000000)  returns 0x00 (0000ms, 0433ms total)
T08E4 000:543 JLINK_WriteReg(R6, 0x00000000)  returns 0x00 (0000ms, 0433ms total)
T08E4 000:543 JLINK_WriteReg(R7, 0x00000000)  returns 0x00 (0000ms, 0433ms total)
T08E4 000:543 JLINK_WriteReg(R8, 0x00000000)  returns 0x00 (0000ms, 0433ms total)
T08E4 000:543 JLINK_WriteReg(R9, 0x20000230)  returns 0x00 (0000ms, 0433ms total)
T08E4 000:543 JLINK_WriteReg(R10, 0x00000000)  returns 0x00 (0000ms, 0433ms total)
T08E4 000:543 JLINK_WriteReg(R11, 0x00000000)  returns 0x00 (0000ms, 0433ms total)
T08E4 000:543 JLINK_WriteReg(R12, 0x00000000)  returns 0x00 (0000ms, 0433ms total)
T08E4 000:543 JLINK_WriteReg(R13 (SP), 0x20002000)  returns 0x00 (0000ms, 0433ms total)
T08E4 000:543 JLINK_WriteReg(R14, 0x20000001)  returns 0x00 (0000ms, 0433ms total)
T08E4 000:543 JLINK_WriteReg(R15 (PC), 0x2000003C)  returns 0x00 (0000ms, 0433ms total)
T08E4 000:543 JLINK_WriteReg(XPSR, 0x01000000)  returns 0x00 (0000ms, 0433ms total)
T08E4 000:543 JLINK_WriteReg(MSP, 0x20002000)  returns 0x00 (0000ms, 0433ms total)
T08E4 000:543 JLINK_WriteReg(PSP, 0x20002000)  returns 0x00 (0000ms, 0433ms total)
T08E4 000:543 JLINK_WriteReg(CFBP, 0x00000000)  returns 0x00 (0000ms, 0433ms total)
T08E4 000:543 JLINK_SetBPEx(Addr = 0x20000000, Type = 0xFFFFFFF2) -- CPU_ReadMem(2 bytes @ 0x20000000)  returns 0x00000001 (0001ms, 0434ms total)
T08E4 000:544 JLINK_Go() -- CPU_WriteMem(2 bytes @ 0x20000000) -- CPU_ReadMem(4 bytes @ 0xE0001000) -- CPU_WriteMem(4 bytes @ 0xE0002008) -- CPU_WriteMem(4 bytes @ 0xE000200C) -- CPU_WriteMem(4 bytes @ 0xE0002010) -- CPU_WriteMem(4 bytes @ 0xE0002014) -- CPU_WriteMem(4 bytes @ 0xE0002018) -- CPU_WriteMem(4 bytes @ 0xE000201C) -- CPU_WriteMem(4 bytes @ 0xE0001004) (0004ms, 0438ms total)
T08E4 000:548 JLINK_IsHalted() -- CPU_ReadMem(2 bytes @ 0x20000000)  returns TRUE (0004ms, 0442ms total)
T08E4 000:552 JLINK_ReadReg(R15 (PC))  returns 0x20000000 (0000ms, 0438ms total)
T08E4 000:552 JLINK_ClrBPEx(BPHandle = 0x00000001)  returns 0x00 (0000ms, 0438ms total)
T08E4 000:552 JLINK_ReadReg(R0)  returns 0x00000000 (0000ms, 0438ms total)
T08E4 000:552 JLINK_WriteReg(R0, 0x00023000)  returns 0x00 (0000ms, 0438ms total)
T08E4 000:552 JLINK_WriteReg(R1, 0x00001000)  returns 0x00 (0000ms, 0438ms total)
T08E4 000:552 JLINK_WriteReg(R2, 0x000000FF)  returns 0x00 (0000ms, 0438ms total)
T08E4 000:552 JLINK_WriteReg(R3, 0x00000000)  returns 0x00 (0000ms, 0438ms total)
T08E4 000:552 JLINK_WriteReg(R4, 0x00000000)  returns 0x00 (0000ms, 0438ms total)
T08E4 000:552 JLINK_WriteReg(R5, 0x00000000)  returns 0x00 (0000ms, 0438ms total)
T08E4 000:553 JLINK_WriteReg(R6, 0x00000000)  returns 0x00 (0000ms, 0439ms total)
T08E4 000:553 JLINK_WriteReg(R7, 0x00000000)  returns 0x00 (0000ms, 0439ms total)
T08E4 000:553 JLINK_WriteReg(R8, 0x00000000)  returns 0x00 (0000ms, 0439ms total)
T08E4 000:553 JLINK_WriteReg(R9, 0x20000230)  returns 0x00 (0000ms, 0439ms total)
T08E4 000:553 JLINK_WriteReg(R10, 0x00000000)  returns 0x00 (0000ms, 0439ms total)
T08E4 000:553 JLINK_WriteReg(R11, 0x00000000)  returns 0x00 (0000ms, 0439ms total)
T08E4 000:553 JLINK_WriteReg(R12, 0x00000000)  returns 0x00 (0000ms, 0439ms total)
T08E4 000:553 JLINK_WriteReg(R13 (SP), 0x20002000)  returns 0x00 (0000ms, 0439ms total)
T08E4 000:553 JLINK_WriteReg(R14, 0x20000001)  returns 0x00 (0000ms, 0439ms total)
T08E4 000:553 JLINK_WriteReg(R15 (PC), 0x2000011A)  returns 0x00 (0000ms, 0439ms total)
T08E4 000:553 JLINK_WriteReg(XPSR, 0x01000000)  returns 0x00 (0000ms, 0439ms total)
T08E4 000:553 JLINK_WriteReg(MSP, 0x20002000)  returns 0x00 (0000ms, 0439ms total)
T08E4 000:553 JLINK_WriteReg(PSP, 0x20002000)  returns 0x00 (0000ms, 0439ms total)
T08E4 000:553 JLINK_WriteReg(CFBP, 0x00000000)  returns 0x00 (0000ms, 0439ms total)
T08E4 000:553 JLINK_SetBPEx(Addr = 0x20000000, Type = 0xFFFFFFF2)  returns 0x00000002 (0000ms, 0439ms total)
T08E4 000:553 JLINK_Go() -- CPU_ReadMem(4 bytes @ 0xE0001000) (0002ms, 0441ms total)
T08E4 000:555 JLINK_IsHalted()  returns FALSE (0001ms, 0442ms total)
T08E4 000:603 JLINK_IsHalted() -- CPU_ReadMem(2 bytes @ 0x20000000)  returns TRUE (0003ms, 0444ms total)
T08E4 000:606 JLINK_ReadReg(R15 (PC))  returns 0x20000000 (0000ms, 0441ms total)
T08E4 000:606 JLINK_ClrBPEx(BPHandle = 0x00000002)  returns 0x00 (0000ms, 0441ms total)
T08E4 000:606 JLINK_ReadReg(R0)  returns 0x00000000 (0000ms, 0441ms total)
T08E4 000:607 JLINK_WriteReg(R0, 0x00024000)  returns 0x00 (0000ms, 0441ms total)
T08E4 000:607 JLINK_WriteReg(R1, 0x00001000)  returns 0x00 (0000ms, 0441ms total)
T08E4 000:607 JLINK_WriteReg(R2, 0x000000FF)  returns 0x00 (0000ms, 0441ms total)
T08E4 000:607 JLINK_WriteReg(R3, 0x00000000)  returns 0x00 (0000ms, 0441ms total)
T08E4 000:607 JLINK_WriteReg(R4, 0x00000000)  returns 0x00 (0000ms, 0441ms total)
T08E4 000:607 JLINK_WriteReg(R5, 0x00000000)  returns 0x00 (0000ms, 0441ms total)
T08E4 000:607 JLINK_WriteReg(R6, 0x00000000)  returns 0x00 (0000ms, 0441ms total)
T08E4 000:607 JLINK_WriteReg(R7, 0x00000000)  returns 0x00 (0000ms, 0441ms total)
T08E4 000:607 JLINK_WriteReg(R8, 0x00000000)  returns 0x00 (0000ms, 0441ms total)
T08E4 000:607 JLINK_WriteReg(R9, 0x20000230)  returns 0x00 (0000ms, 0441ms total)
T08E4 000:607 JLINK_WriteReg(R10, 0x00000000)  returns 0x00 (0000ms, 0441ms total)
T08E4 000:607 JLINK_WriteReg(R11, 0x00000000)  returns 0x00 (0000ms, 0441ms total)
T08E4 000:607 JLINK_WriteReg(R12, 0x00000000)  returns 0x00 (0000ms, 0441ms total)
T08E4 000:607 JLINK_WriteReg(R13 (SP), 0x20002000)  returns 0x00 (0000ms, 0441ms total)
T08E4 000:607 JLINK_WriteReg(R14, 0x20000001)  returns 0x00 (0000ms, 0441ms total)
T08E4 000:607 JLINK_WriteReg(R15 (PC), 0x2000011A)  returns 0x00 (0000ms, 0441ms total)
T08E4 000:607 JLINK_WriteReg(XPSR, 0x01000000)  returns 0x00 (0000ms, 0441ms total)
T08E4 000:607 JLINK_WriteReg(MSP, 0x20002000)  returns 0x00 (0000ms, 0441ms total)
T08E4 000:607 JLINK_WriteReg(PSP, 0x20002000)  returns 0x00 (0000ms, 0441ms total)
T08E4 000:607 JLINK_WriteReg(CFBP, 0x00000000)  returns 0x00 (0000ms, 0441ms total)
T08E4 000:607 JLINK_SetBPEx(Addr = 0x20000000, Type = 0xFFFFFFF2)  returns 0x00000003 (0000ms, 0441ms total)
T08E4 000:607 JLINK_Go() -- CPU_ReadMem(4 bytes @ 0xE0001000) (0002ms, 0443ms total)
T08E4 000:609 JLINK_IsHalted()  returns FALSE (0000ms, 0443ms total)
T08E4 000:611 JLINK_IsHalted() -- CPU_ReadMem(2 bytes @ 0x20000000)  returns TRUE (0003ms, 0446ms total)
T08E4 000:614 JLINK_ReadReg(R15 (PC))  returns 0x20000000 (0000ms, 0443ms total)
T08E4 000:614 JLINK_ClrBPEx(BPHandle = 0x00000003)  returns 0x00 (0000ms, 0443ms total)
T08E4 000:614 JLINK_ReadReg(R0)  returns 0x00000000 (0000ms, 0443ms total)
T08E4 000:615 JLINK_WriteReg(R0, 0x00025000)  returns 0x00 (0000ms, 0443ms total)
T08E4 000:615 JLINK_WriteReg(R1, 0x00001000)  returns 0x00 (0000ms, 0443ms total)
T08E4 000:615 JLINK_WriteReg(R2, 0x000000FF)  returns 0x00 (0000ms, 0443ms total)
T08E4 000:615 JLINK_WriteReg(R3, 0x00000000)  returns 0x00 (0000ms, 0443ms total)
T08E4 000:615 JLINK_WriteReg(R4, 0x00000000)  returns 0x00 (0000ms, 0443ms total)
T08E4 000:615 JLINK_WriteReg(R5, 0x00000000)  returns 0x00 (0000ms, 0443ms total)
T08E4 000:615 JLINK_WriteReg(R6, 0x00000000)  returns 0x00 (0000ms, 0443ms total)
T08E4 000:615 JLINK_WriteReg(R7, 0x00000000)  returns 0x00 (0000ms, 0443ms total)
T08E4 000:615 JLINK_WriteReg(R8, 0x00000000)  returns 0x00 (0000ms, 0443ms total)
T08E4 000:615 JLINK_WriteReg(R9, 0x20000230)  returns 0x00 (0000ms, 0443ms total)
T08E4 000:615 JLINK_WriteReg(R10, 0x00000000)  returns 0x00 (0000ms, 0443ms total)
T08E4 000:615 JLINK_WriteReg(R11, 0x00000000)  returns 0x00 (0000ms, 0443ms total)
T08E4 000:615 JLINK_WriteReg(R12, 0x00000000)  returns 0x00 (0000ms, 0443ms total)
T08E4 000:615 JLINK_WriteReg(R13 (SP), 0x20002000)  returns 0x00 (0000ms, 0443ms total)
T08E4 000:615 JLINK_WriteReg(R14, 0x20000001)  returns 0x00 (0000ms, 0443ms total)
T08E4 000:615 JLINK_WriteReg(R15 (PC), 0x2000011A)  returns 0x00 (0000ms, 0443ms total)
T08E4 000:615 JLINK_WriteReg(XPSR, 0x01000000)  returns 0x00 (0000ms, 0443ms total)
T08E4 000:615 JLINK_WriteReg(MSP, 0x20002000)  returns 0x00 (0000ms, 0443ms total)
T08E4 000:615 JLINK_WriteReg(PSP, 0x20002000)  returns 0x00 (0000ms, 0443ms total)
T08E4 000:615 JLINK_WriteReg(CFBP, 0x00000000)  returns 0x00 (0000ms, 0443ms total)
T08E4 000:615 JLINK_SetBPEx(Addr = 0x20000000, Type = 0xFFFFFFF2)  returns 0x00000004 (0000ms, 0443ms total)
T08E4 000:615 JLINK_Go() -- CPU_ReadMem(4 bytes @ 0xE0001000) (0002ms, 0445ms total)
T08E4 000:617 JLINK_IsHalted()  returns FALSE (0000ms, 0445ms total)
T08E4 000:620 JLINK_IsHalted() -- CPU_ReadMem(2 bytes @ 0x20000000)  returns TRUE (0004ms, 0449ms total)
T08E4 000:624 JLINK_ReadReg(R15 (PC))  returns 0x20000000 (0000ms, 0445ms total)
T08E4 000:624 JLINK_ClrBPEx(BPHandle = 0x00000004)  returns 0x00 (0000ms, 0445ms total)
T08E4 000:624 JLINK_ReadReg(R0)  returns 0x00000000 (0000ms, 0445ms total)
T08E4 000:624 JLINK_WriteReg(R0, 0x00026000)  returns 0x00 (0000ms, 0445ms total)
T08E4 000:624 JLINK_WriteReg(R1, 0x00001000)  returns 0x00 (0000ms, 0445ms total)
T08E4 000:624 JLINK_WriteReg(R2, 0x000000FF)  returns 0x00 (0000ms, 0445ms total)
T08E4 000:624 JLINK_WriteReg(R3, 0x00000000)  returns 0x00 (0000ms, 0445ms total)
T08E4 000:624 JLINK_WriteReg(R4, 0x00000000)  returns 0x00 (0000ms, 0445ms total)
T08E4 000:624 JLINK_WriteReg(R5, 0x00000000)  returns 0x00 (0000ms, 0445ms total)
T08E4 000:624 JLINK_WriteReg(R6, 0x00000000)  returns 0x00 (0000ms, 0445ms total)
T08E4 000:624 JLINK_WriteReg(R7, 0x00000000)  returns 0x00 (0000ms, 0445ms total)
T08E4 000:624 JLINK_WriteReg(R8, 0x00000000)  returns 0x00 (0000ms, 0445ms total)
T08E4 000:624 JLINK_WriteReg(R9, 0x20000230)  returns 0x00 (0000ms, 0445ms total)
T08E4 000:624 JLINK_WriteReg(R10, 0x00000000)  returns 0x00 (0000ms, 0445ms total)
T08E4 000:624 JLINK_WriteReg(R11, 0x00000000)  returns 0x00 (0001ms, 0446ms total)
T08E4 000:625 JLINK_WriteReg(R12, 0x00000000)  returns 0x00 (0000ms, 0446ms total)
T08E4 000:625 JLINK_WriteReg(R13 (SP), 0x20002000)  returns 0x00 (0000ms, 0446ms total)
T08E4 000:625 JLINK_WriteReg(R14, 0x20000001)  returns 0x00 (0000ms, 0446ms total)
T08E4 000:625 JLINK_WriteReg(R15 (PC), 0x2000011A)  returns 0x00 (0000ms, 0446ms total)
T08E4 000:625 JLINK_WriteReg(XPSR, 0x01000000)  returns 0x00 (0000ms, 0446ms total)
T08E4 000:625 JLINK_WriteReg(MSP, 0x20002000)  returns 0x00 (0000ms, 0446ms total)
T08E4 000:625 JLINK_WriteReg(PSP, 0x20002000)  returns 0x00 (0000ms, 0446ms total)
T08E4 000:625 JLINK_WriteReg(CFBP, 0x00000000)  returns 0x00 (0000ms, 0446ms total)
T08E4 000:625 JLINK_SetBPEx(Addr = 0x20000000, Type = 0xFFFFFFF2)  returns 0x00000005 (0000ms, 0446ms total)
T08E4 000:625 JLINK_Go() -- CPU_ReadMem(4 bytes @ 0xE0001000) (0001ms, 0447ms total)
T08E4 000:626 JLINK_IsHalted()  returns FALSE (0001ms, 0448ms total)
T08E4 000:629 JLINK_IsHalted() -- CPU_ReadMem(2 bytes @ 0x20000000)  returns TRUE (0003ms, 0450ms total)
T08E4 000:632 JLINK_ReadReg(R15 (PC))  returns 0x20000000 (0000ms, 0447ms total)
T08E4 000:632 JLINK_ClrBPEx(BPHandle = 0x00000005)  returns 0x00 (0000ms, 0447ms total)
T08E4 000:632 JLINK_ReadReg(R0)  returns 0x00000000 (0000ms, 0447ms total)
T08E4 000:633 JLINK_WriteReg(R0, 0x00027000)  returns 0x00 (0000ms, 0447ms total)
T08E4 000:633 JLINK_WriteReg(R1, 0x00001000)  returns 0x00 (0000ms, 0447ms total)
T08E4 000:633 JLINK_WriteReg(R2, 0x000000FF)  returns 0x00 (0000ms, 0447ms total)
T08E4 000:633 JLINK_WriteReg(R3, 0x00000000)  returns 0x00 (0000ms, 0447ms total)
T08E4 000:633 JLINK_WriteReg(R4, 0x00000000)  returns 0x00 (0000ms, 0447ms total)
T08E4 000:633 JLINK_WriteReg(R5, 0x00000000)  returns 0x00 (0000ms, 0447ms total)
T08E4 000:633 JLINK_WriteReg(R6, 0x00000000)  returns 0x00 (0000ms, 0447ms total)
T08E4 000:633 JLINK_WriteReg(R7, 0x00000000)  returns 0x00 (0000ms, 0447ms total)
T08E4 000:633 JLINK_WriteReg(R8, 0x00000000)  returns 0x00 (0000ms, 0447ms total)
T08E4 000:633 JLINK_WriteReg(R9, 0x20000230)  returns 0x00 (0000ms, 0447ms total)
T08E4 000:633 JLINK_WriteReg(R10, 0x00000000)  returns 0x00 (0000ms, 0447ms total)
T08E4 000:633 JLINK_WriteReg(R11, 0x00000000)  returns 0x00 (0000ms, 0447ms total)
T08E4 000:633 JLINK_WriteReg(R12, 0x00000000)  returns 0x00 (0000ms, 0447ms total)
T08E4 000:633 JLINK_WriteReg(R13 (SP), 0x20002000)  returns 0x00 (0000ms, 0447ms total)
T08E4 000:633 JLINK_WriteReg(R14, 0x20000001)  returns 0x00 (0000ms, 0447ms total)
T08E4 000:633 JLINK_WriteReg(R15 (PC), 0x2000011A)  returns 0x00 (0000ms, 0447ms total)
T08E4 000:633 JLINK_WriteReg(XPSR, 0x01000000)  returns 0x00 (0000ms, 0447ms total)
T08E4 000:633 JLINK_WriteReg(MSP, 0x20002000)  returns 0x00 (0000ms, 0447ms total)
T08E4 000:633 JLINK_WriteReg(PSP, 0x20002000)  returns 0x00 (0000ms, 0447ms total)
T08E4 000:633 JLINK_WriteReg(CFBP, 0x00000000)  returns 0x00 (0000ms, 0447ms total)
T08E4 000:633 JLINK_SetBPEx(Addr = 0x20000000, Type = 0xFFFFFFF2)  returns 0x00000006 (0000ms, 0447ms total)
T08E4 000:633 JLINK_Go() -- CPU_ReadMem(4 bytes @ 0xE0001000) (0002ms, 0449ms total)
T08E4 000:635 JLINK_IsHalted()  returns FALSE (0001ms, 0450ms total)
T08E4 000:638 JLINK_IsHalted() -- CPU_ReadMem(2 bytes @ 0x20000000)  returns TRUE (0003ms, 0452ms total)
T08E4 000:641 JLINK_ReadReg(R15 (PC))  returns 0x20000000 (0000ms, 0449ms total)
T08E4 000:641 JLINK_ClrBPEx(BPHandle = 0x00000006)  returns 0x00 (0000ms, 0449ms total)
T08E4 000:641 JLINK_ReadReg(R0)  returns 0x00000000 (0000ms, 0449ms total)
T08E4 000:643 JLINK_WriteReg(R0, 0x00028000)  returns 0x00 (0000ms, 0449ms total)
T08E4 000:643 JLINK_WriteReg(R1, 0x00001000)  returns 0x00 (0000ms, 0449ms total)
T08E4 000:643 JLINK_WriteReg(R2, 0x000000FF)  returns 0x00 (0000ms, 0449ms total)
T08E4 000:643 JLINK_WriteReg(R3, 0x00000000)  returns 0x00 (0000ms, 0449ms total)
T08E4 000:643 JLINK_WriteReg(R4, 0x00000000)  returns 0x00 (0000ms, 0449ms total)
T08E4 000:643 JLINK_WriteReg(R5, 0x00000000)  returns 0x00 (0000ms, 0449ms total)
T08E4 000:643 JLINK_WriteReg(R6, 0x00000000)  returns 0x00 (0001ms, 0450ms total)
T08E4 000:644 JLINK_WriteReg(R7, 0x00000000)  returns 0x00 (0000ms, 0450ms total)
T08E4 000:644 JLINK_WriteReg(R8, 0x00000000)  returns 0x00 (0000ms, 0450ms total)
T08E4 000:644 JLINK_WriteReg(R9, 0x20000230)  returns 0x00 (0000ms, 0450ms total)
T08E4 000:644 JLINK_WriteReg(R10, 0x00000000)  returns 0x00 (0000ms, 0450ms total)
T08E4 000:644 JLINK_WriteReg(R11, 0x00000000)  returns 0x00 (0000ms, 0450ms total)
T08E4 000:644 JLINK_WriteReg(R12, 0x00000000)  returns 0x00 (0000ms, 0450ms total)
T08E4 000:644 JLINK_WriteReg(R13 (SP), 0x20002000)  returns 0x00 (0000ms, 0450ms total)
T08E4 000:644 JLINK_WriteReg(R14, 0x20000001)  returns 0x00 (0000ms, 0450ms total)
T08E4 000:644 JLINK_WriteReg(R15 (PC), 0x2000011A)  returns 0x00 (0000ms, 0450ms total)
T08E4 000:644 JLINK_WriteReg(XPSR, 0x01000000)  returns 0x00 (0000ms, 0450ms total)
T08E4 000:644 JLINK_WriteReg(MSP, 0x20002000)  returns 0x00 (0000ms, 0450ms total)
T08E4 000:644 JLINK_WriteReg(PSP, 0x20002000)  returns 0x00 (0000ms, 0450ms total)
T08E4 000:644 JLINK_WriteReg(CFBP, 0x00000000)  returns 0x00 (0000ms, 0450ms total)
T08E4 000:644 JLINK_SetBPEx(Addr = 0x20000000, Type = 0xFFFFFFF2)  returns 0x00000007 (0000ms, 0450ms total)
T08E4 000:644 JLINK_Go() -- CPU_ReadMem(4 bytes @ 0xE0001000) (0001ms, 0451ms total)
T08E4 000:645 JLINK_IsHalted()  returns FALSE (0001ms, 0452ms total)
T08E4 000:648 JLINK_IsHalted() -- CPU_ReadMem(2 bytes @ 0x20000000)  returns TRUE (0003ms, 0454ms total)
T08E4 000:651 JLINK_ReadReg(R15 (PC))  returns 0x20000000 (0000ms, 0451ms total)
T08E4 000:651 JLINK_ClrBPEx(BPHandle = 0x00000007)  returns 0x00 (0000ms, 0451ms total)
T08E4 000:651 JLINK_ReadReg(R0)  returns 0x00000000 (0000ms, 0451ms total)
T08E4 000:652 JLINK_WriteReg(R0, 0x00029000)  returns 0x00 (0000ms, 0451ms total)
T08E4 000:652 JLINK_WriteReg(R1, 0x00001000)  returns 0x00 (0000ms, 0451ms total)
T08E4 000:652 JLINK_WriteReg(R2, 0x000000FF)  returns 0x00 (0000ms, 0451ms total)
T08E4 000:652 JLINK_WriteReg(R3, 0x00000000)  returns 0x00 (0000ms, 0451ms total)
T08E4 000:652 JLINK_WriteReg(R4, 0x00000000)  returns 0x00 (0000ms, 0451ms total)
T08E4 000:652 JLINK_WriteReg(R5, 0x00000000)  returns 0x00 (0000ms, 0451ms total)
T08E4 000:652 JLINK_WriteReg(R6, 0x00000000)  returns 0x00 (0000ms, 0451ms total)
T08E4 000:652 JLINK_WriteReg(R7, 0x00000000)  returns 0x00 (0000ms, 0451ms total)
T08E4 000:652 JLINK_WriteReg(R8, 0x00000000)  returns 0x00 (0000ms, 0451ms total)
T08E4 000:652 JLINK_WriteReg(R9, 0x20000230)  returns 0x00 (0000ms, 0451ms total)
T08E4 000:652 JLINK_WriteReg(R10, 0x00000000)  returns 0x00 (0000ms, 0451ms total)
T08E4 000:652 JLINK_WriteReg(R11, 0x00000000)  returns 0x00 (0000ms, 0451ms total)
T08E4 000:652 JLINK_WriteReg(R12, 0x00000000)  returns 0x00 (0000ms, 0451ms total)
T08E4 000:652 JLINK_WriteReg(R13 (SP), 0x20002000)  returns 0x00 (0000ms, 0451ms total)
T08E4 000:652 JLINK_WriteReg(R14, 0x20000001)  returns 0x00 (0000ms, 0451ms total)
T08E4 000:652 JLINK_WriteReg(R15 (PC), 0x2000011A)  returns 0x00 (0000ms, 0451ms total)
T08E4 000:652 JLINK_WriteReg(XPSR, 0x01000000)  returns 0x00 (0000ms, 0451ms total)
T08E4 000:652 JLINK_WriteReg(MSP, 0x20002000)  returns 0x00 (0000ms, 0451ms total)
T08E4 000:652 JLINK_WriteReg(PSP, 0x20002000)  returns 0x00 (0000ms, 0451ms total)
T08E4 000:652 JLINK_WriteReg(CFBP, 0x00000000)  returns 0x00 (0000ms, 0451ms total)
T08E4 000:652 JLINK_SetBPEx(Addr = 0x20000000, Type = 0xFFFFFFF2)  returns 0x00000008 (0000ms, 0451ms total)
T08E4 000:652 JLINK_Go() -- CPU_ReadMem(4 bytes @ 0xE0001000) (0002ms, 0453ms total)
T08E4 000:654 JLINK_IsHalted()  returns FALSE (0000ms, 0453ms total)
T08E4 000:656 JLINK_IsHalted() -- CPU_ReadMem(2 bytes @ 0x20000000)  returns TRUE (0003ms, 0456ms total)
T08E4 000:659 JLINK_ReadReg(R15 (PC))  returns 0x20000000 (0000ms, 0453ms total)
T08E4 000:659 JLINK_ClrBPEx(BPHandle = 0x00000008)  returns 0x00 (0000ms, 0453ms total)
T08E4 000:659 JLINK_ReadReg(R0)  returns 0x00000000 (0000ms, 0453ms total)
T08E4 000:660 JLINK_WriteReg(R0, 0x0002A000)  returns 0x00 (0000ms, 0453ms total)
T08E4 000:660 JLINK_WriteReg(R1, 0x00001000)  returns 0x00 (0000ms, 0453ms total)
T08E4 000:660 JLINK_WriteReg(R2, 0x000000FF)  returns 0x00 (0000ms, 0453ms total)
T08E4 000:660 JLINK_WriteReg(R3, 0x00000000)  returns 0x00 (0000ms, 0453ms total)
T08E4 000:660 JLINK_WriteReg(R4, 0x00000000)  returns 0x00 (0000ms, 0453ms total)
T08E4 000:660 JLINK_WriteReg(R5, 0x00000000)  returns 0x00 (0000ms, 0453ms total)
T08E4 000:660 JLINK_WriteReg(R6, 0x00000000)  returns 0x00 (0000ms, 0453ms total)
T08E4 000:660 JLINK_WriteReg(R7, 0x00000000)  returns 0x00 (0000ms, 0453ms total)
T08E4 000:660 JLINK_WriteReg(R8, 0x00000000)  returns 0x00 (0000ms, 0453ms total)
T08E4 000:660 JLINK_WriteReg(R9, 0x20000230)  returns 0x00 (0000ms, 0453ms total)
T08E4 000:660 JLINK_WriteReg(R10, 0x00000000)  returns 0x00 (0000ms, 0453ms total)
T08E4 000:660 JLINK_WriteReg(R11, 0x00000000)  returns 0x00 (0000ms, 0453ms total)
T08E4 000:660 JLINK_WriteReg(R12, 0x00000000)  returns 0x00 (0000ms, 0453ms total)
T08E4 000:660 JLINK_WriteReg(R13 (SP), 0x20002000)  returns 0x00 (0000ms, 0453ms total)
T08E4 000:660 JLINK_WriteReg(R14, 0x20000001)  returns 0x00 (0000ms, 0453ms total)
T08E4 000:660 JLINK_WriteReg(R15 (PC), 0x2000011A)  returns 0x00 (0000ms, 0453ms total)
T08E4 000:660 JLINK_WriteReg(XPSR, 0x01000000)  returns 0x00 (0000ms, 0453ms total)
T08E4 000:660 JLINK_WriteReg(MSP, 0x20002000)  returns 0x00 (0000ms, 0453ms total)
T08E4 000:660 JLINK_WriteReg(PSP, 0x20002000)  returns 0x00 (0000ms, 0453ms total)
T08E4 000:660 JLINK_WriteReg(CFBP, 0x00000000)  returns 0x00 (0000ms, 0453ms total)
T08E4 000:660 JLINK_SetBPEx(Addr = 0x20000000, Type = 0xFFFFFFF2)  returns 0x00000009 (0000ms, 0453ms total)
T08E4 000:660 JLINK_Go() -- CPU_ReadMem(4 bytes @ 0xE0001000) (0002ms, 0455ms total)
T08E4 000:662 JLINK_IsHalted()  returns FALSE (0000ms, 0455ms total)
T08E4 000:665 JLINK_IsHalted() -- CPU_ReadMem(2 bytes @ 0x20000000)  returns TRUE (0003ms, 0458ms total)
T08E4 000:668 JLINK_ReadReg(R15 (PC))  returns 0x20000000 (0000ms, 0455ms total)
T08E4 000:668 JLINK_ClrBPEx(BPHandle = 0x00000009)  returns 0x00 (0000ms, 0455ms total)
T08E4 000:668 JLINK_ReadReg(R0)  returns 0x00000000 (0000ms, 0455ms total)
T08E4 000:669 JLINK_WriteReg(R0, 0x0002B000)  returns 0x00 (0000ms, 0455ms total)
T08E4 000:669 JLINK_WriteReg(R1, 0x00001000)  returns 0x00 (0000ms, 0455ms total)
T08E4 000:669 JLINK_WriteReg(R2, 0x000000FF)  returns 0x00 (0000ms, 0455ms total)
T08E4 000:669 JLINK_WriteReg(R3, 0x00000000)  returns 0x00 (0000ms, 0455ms total)
T08E4 000:669 JLINK_WriteReg(R4, 0x00000000)  returns 0x00 (0000ms, 0455ms total)
T08E4 000:669 JLINK_WriteReg(R5, 0x00000000)  returns 0x00 (0000ms, 0455ms total)
T08E4 000:669 JLINK_WriteReg(R6, 0x00000000)  returns 0x00 (0000ms, 0455ms total)
T08E4 000:669 JLINK_WriteReg(R7, 0x00000000)  returns 0x00 (0000ms, 0455ms total)
T08E4 000:669 JLINK_WriteReg(R8, 0x00000000)  returns 0x00 (0000ms, 0455ms total)
T08E4 000:669 JLINK_WriteReg(R9, 0x20000230)  returns 0x00 (0000ms, 0455ms total)
T08E4 000:669 JLINK_WriteReg(R10, 0x00000000)  returns 0x00 (0000ms, 0455ms total)
T08E4 000:669 JLINK_WriteReg(R11, 0x00000000)  returns 0x00 (0000ms, 0455ms total)
T08E4 000:669 JLINK_WriteReg(R12, 0x00000000)  returns 0x00 (0000ms, 0455ms total)
T08E4 000:669 JLINK_WriteReg(R13 (SP), 0x20002000)  returns 0x00 (0000ms, 0455ms total)
T08E4 000:669 JLINK_WriteReg(R14, 0x20000001)  returns 0x00 (0000ms, 0455ms total)
T08E4 000:669 JLINK_WriteReg(R15 (PC), 0x2000011A)  returns 0x00 (0000ms, 0455ms total)
T08E4 000:669 JLINK_WriteReg(XPSR, 0x01000000)  returns 0x00 (0000ms, 0455ms total)
T08E4 000:669 JLINK_WriteReg(MSP, 0x20002000)  returns 0x00 (0000ms, 0455ms total)
T08E4 000:669 JLINK_WriteReg(PSP, 0x20002000)  returns 0x00 (0000ms, 0455ms total)
T08E4 000:669 JLINK_WriteReg(CFBP, 0x00000000)  returns 0x00 (0000ms, 0455ms total)
T08E4 000:669 JLINK_SetBPEx(Addr = 0x20000000, Type = 0xFFFFFFF2)  returns 0x0000000A (0000ms, 0455ms total)
T08E4 000:669 JLINK_Go() -- CPU_ReadMem(4 bytes @ 0xE0001000) (0002ms, 0457ms total)
T08E4 000:671 JLINK_IsHalted()  returns FALSE (0000ms, 0457ms total)
T08E4 000:673 JLINK_IsHalted() -- CPU_ReadMem(2 bytes @ 0x20000000)  returns TRUE (0003ms, 0460ms total)
T08E4 000:676 JLINK_ReadReg(R15 (PC))  returns 0x20000000 (0000ms, 0457ms total)
T08E4 000:676 JLINK_ClrBPEx(BPHandle = 0x0000000A)  returns 0x00 (0000ms, 0457ms total)
T08E4 000:676 JLINK_ReadReg(R0)  returns 0x00000000 (0000ms, 0457ms total)
T08E4 000:677 JLINK_WriteReg(R0, 0x0002C000)  returns 0x00 (0000ms, 0457ms total)
T08E4 000:677 JLINK_WriteReg(R1, 0x00001000)  returns 0x00 (0000ms, 0457ms total)
T08E4 000:677 JLINK_WriteReg(R2, 0x000000FF)  returns 0x00 (0000ms, 0457ms total)
T08E4 000:677 JLINK_WriteReg(R3, 0x00000000)  returns 0x00 (0000ms, 0457ms total)
T08E4 000:677 JLINK_WriteReg(R4, 0x00000000)  returns 0x00 (0000ms, 0457ms total)
T08E4 000:677 JLINK_WriteReg(R5, 0x00000000)  returns 0x00 (0000ms, 0457ms total)
T08E4 000:677 JLINK_WriteReg(R6, 0x00000000)  returns 0x00 (0000ms, 0457ms total)
T08E4 000:677 JLINK_WriteReg(R7, 0x00000000)  returns 0x00 (0000ms, 0457ms total)
T08E4 000:677 JLINK_WriteReg(R8, 0x00000000)  returns 0x00 (0000ms, 0457ms total)
T08E4 000:677 JLINK_WriteReg(R9, 0x20000230)  returns 0x00 (0000ms, 0457ms total)
T08E4 000:677 JLINK_WriteReg(R10, 0x00000000)  returns 0x00 (0000ms, 0457ms total)
T08E4 000:677 JLINK_WriteReg(R11, 0x00000000)  returns 0x00 (0000ms, 0457ms total)
T08E4 000:677 JLINK_WriteReg(R12, 0x00000000)  returns 0x00 (0000ms, 0457ms total)
T08E4 000:677 JLINK_WriteReg(R13 (SP), 0x20002000)  returns 0x00 (0000ms, 0457ms total)
T08E4 000:677 JLINK_WriteReg(R14, 0x20000001)  returns 0x00 (0000ms, 0457ms total)
T08E4 000:677 JLINK_WriteReg(R15 (PC), 0x2000011A)  returns 0x00 (0000ms, 0457ms total)
T08E4 000:677 JLINK_WriteReg(XPSR, 0x01000000)  returns 0x00 (0000ms, 0457ms total)
T08E4 000:677 JLINK_WriteReg(MSP, 0x20002000)  returns 0x00 (0000ms, 0457ms total)
T08E4 000:677 JLINK_WriteReg(PSP, 0x20002000)  returns 0x00 (0000ms, 0457ms total)
T08E4 000:677 JLINK_WriteReg(CFBP, 0x00000000)  returns 0x00 (0000ms, 0457ms total)
T08E4 000:677 JLINK_SetBPEx(Addr = 0x20000000, Type = 0xFFFFFFF2)  returns 0x0000000B (0000ms, 0457ms total)
T08E4 000:677 JLINK_Go() -- CPU_ReadMem(4 bytes @ 0xE0001000) (0003ms, 0460ms total)
T08E4 000:680 JLINK_IsHalted()  returns FALSE (0000ms, 0460ms total)
T08E4 000:682 JLINK_IsHalted() -- CPU_ReadMem(2 bytes @ 0x20000000)  returns TRUE (0002ms, 0462ms total)
T08E4 000:684 JLINK_ReadReg(R15 (PC))  returns 0x20000000 (0000ms, 0460ms total)
T08E4 000:684 JLINK_ClrBPEx(BPHandle = 0x0000000B)  returns 0x00 (0000ms, 0460ms total)
T08E4 000:684 JLINK_ReadReg(R0)  returns 0x00000000 (0000ms, 0460ms total)
T08E4 000:685 JLINK_WriteReg(R0, 0x0002D000)  returns 0x00 (0000ms, 0460ms total)
T08E4 000:685 JLINK_WriteReg(R1, 0x00001000)  returns 0x00 (0000ms, 0460ms total)
T08E4 000:685 JLINK_WriteReg(R2, 0x000000FF)  returns 0x00 (0000ms, 0460ms total)
T08E4 000:685 JLINK_WriteReg(R3, 0x00000000)  returns 0x00 (0000ms, 0460ms total)
T08E4 000:685 JLINK_WriteReg(R4, 0x00000000)  returns 0x00 (0000ms, 0460ms total)
T08E4 000:685 JLINK_WriteReg(R5, 0x00000000)  returns 0x00 (0000ms, 0460ms total)
T08E4 000:685 JLINK_WriteReg(R6, 0x00000000)  returns 0x00 (0000ms, 0460ms total)
T08E4 000:685 JLINK_WriteReg(R7, 0x00000000)  returns 0x00 (0000ms, 0460ms total)
T08E4 000:685 JLINK_WriteReg(R8, 0x00000000)  returns 0x00 (0000ms, 0460ms total)
T08E4 000:685 JLINK_WriteReg(R9, 0x20000230)  returns 0x00 (0000ms, 0460ms total)
T08E4 000:685 JLINK_WriteReg(R10, 0x00000000)  returns 0x00 (0000ms, 0460ms total)
T08E4 000:685 JLINK_WriteReg(R11, 0x00000000)  returns 0x00 (0000ms, 0460ms total)
T08E4 000:685 JLINK_WriteReg(R12, 0x00000000)  returns 0x00 (0000ms, 0460ms total)
T08E4 000:685 JLINK_WriteReg(R13 (SP), 0x20002000)  returns 0x00 (0000ms, 0460ms total)
T08E4 000:685 JLINK_WriteReg(R14, 0x20000001)  returns 0x00 (0000ms, 0460ms total)
T08E4 000:685 JLINK_WriteReg(R15 (PC), 0x2000011A)  returns 0x00 (0000ms, 0460ms total)
T08E4 000:685 JLINK_WriteReg(XPSR, 0x01000000)  returns 0x00 (0000ms, 0460ms total)
T08E4 000:685 JLINK_WriteReg(MSP, 0x20002000)  returns 0x00 (0000ms, 0460ms total)
T08E4 000:685 JLINK_WriteReg(PSP, 0x20002000)  returns 0x00 (0000ms, 0460ms total)
T08E4 000:685 JLINK_WriteReg(CFBP, 0x00000000)  returns 0x00 (0000ms, 0460ms total)
T08E4 000:685 JLINK_SetBPEx(Addr = 0x20000000, Type = 0xFFFFFFF2)  returns 0x0000000C (0000ms, 0460ms total)
T08E4 000:685 JLINK_Go() -- CPU_ReadMem(4 bytes @ 0xE0001000) (0002ms, 0462ms total)
T08E4 000:687 JLINK_IsHalted()  returns FALSE (0001ms, 0463ms total)
T08E4 000:690 JLINK_IsHalted() -- CPU_ReadMem(2 bytes @ 0x20000000)  returns TRUE (0003ms, 0465ms total)
T08E4 000:693 JLINK_ReadReg(R15 (PC))  returns 0x20000000 (0000ms, 0462ms total)
T08E4 000:693 JLINK_ClrBPEx(BPHandle = 0x0000000C)  returns 0x00 (0000ms, 0462ms total)
T08E4 000:693 JLINK_ReadReg(R0)  returns 0x00000000 (0000ms, 0462ms total)
T08E4 000:694 JLINK_WriteReg(R0, 0x0002E000)  returns 0x00 (0000ms, 0462ms total)
T08E4 000:694 JLINK_WriteReg(R1, 0x00001000)  returns 0x00 (0000ms, 0462ms total)
T08E4 000:694 JLINK_WriteReg(R2, 0x000000FF)  returns 0x00 (0000ms, 0462ms total)
T08E4 000:694 JLINK_WriteReg(R3, 0x00000000)  returns 0x00 (0000ms, 0462ms total)
T08E4 000:694 JLINK_WriteReg(R4, 0x00000000)  returns 0x00 (0000ms, 0462ms total)
T08E4 000:694 JLINK_WriteReg(R5, 0x00000000)  returns 0x00 (0000ms, 0462ms total)
T08E4 000:694 JLINK_WriteReg(R6, 0x00000000)  returns 0x00 (0000ms, 0462ms total)
T08E4 000:694 JLINK_WriteReg(R7, 0x00000000)  returns 0x00 (0000ms, 0462ms total)
T08E4 000:694 JLINK_WriteReg(R8, 0x00000000)  returns 0x00 (0000ms, 0462ms total)
T08E4 000:694 JLINK_WriteReg(R9, 0x20000230)  returns 0x00 (0000ms, 0462ms total)
T08E4 000:694 JLINK_WriteReg(R10, 0x00000000)  returns 0x00 (0000ms, 0462ms total)
T08E4 000:694 JLINK_WriteReg(R11, 0x00000000)  returns 0x00 (0000ms, 0462ms total)
T08E4 000:694 JLINK_WriteReg(R12, 0x00000000)  returns 0x00 (0000ms, 0462ms total)
T08E4 000:694 JLINK_WriteReg(R13 (SP), 0x20002000)  returns 0x00 (0000ms, 0462ms total)
T08E4 000:694 JLINK_WriteReg(R14, 0x20000001)  returns 0x00 (0000ms, 0462ms total)
T08E4 000:694 JLINK_WriteReg(R15 (PC), 0x2000011A)  returns 0x00 (0000ms, 0462ms total)
T08E4 000:694 JLINK_WriteReg(XPSR, 0x01000000)  returns 0x00 (0000ms, 0462ms total)
T08E4 000:694 JLINK_WriteReg(MSP, 0x20002000)  returns 0x00 (0000ms, 0462ms total)
T08E4 000:694 JLINK_WriteReg(PSP, 0x20002000)  returns 0x00 (0000ms, 0462ms total)
T08E4 000:694 JLINK_WriteReg(CFBP, 0x00000000)  returns 0x00 (0000ms, 0462ms total)
T08E4 000:694 JLINK_SetBPEx(Addr = 0x20000000, Type = 0xFFFFFFF2)  returns 0x0000000D (0000ms, 0462ms total)
T08E4 000:694 JLINK_Go() -- CPU_ReadMem(4 bytes @ 0xE0001000) (0002ms, 0464ms total)
T08E4 000:696 JLINK_IsHalted()  returns FALSE (0000ms, 0464ms total)
T08E4 000:700 JLINK_IsHalted() -- CPU_ReadMem(2 bytes @ 0x20000000)  returns TRUE (0003ms, 0467ms total)
T08E4 000:703 JLINK_ReadReg(R15 (PC))  returns 0x20000000 (0000ms, 0464ms total)
T08E4 000:703 JLINK_ClrBPEx(BPHandle = 0x0000000D)  returns 0x00 (0000ms, 0464ms total)
T08E4 000:703 JLINK_ReadReg(R0)  returns 0x00000000 (0000ms, 0464ms total)
T08E4 000:705 JLINK_WriteReg(R0, 0x0002F000)  returns 0x00 (0000ms, 0464ms total)
T08E4 000:705 JLINK_WriteReg(R1, 0x00001000)  returns 0x00 (0000ms, 0464ms total)
T08E4 000:705 JLINK_WriteReg(R2, 0x000000FF)  returns 0x00 (0000ms, 0464ms total)
T08E4 000:705 JLINK_WriteReg(R3, 0x00000000)  returns 0x00 (0000ms, 0464ms total)
T08E4 000:705 JLINK_WriteReg(R4, 0x00000000)  returns 0x00 (0000ms, 0464ms total)
T08E4 000:705 JLINK_WriteReg(R5, 0x00000000)  returns 0x00 (0000ms, 0464ms total)
T08E4 000:705 JLINK_WriteReg(R6, 0x00000000)  returns 0x00 (0000ms, 0464ms total)
T08E4 000:705 JLINK_WriteReg(R7, 0x00000000)  returns 0x00 (0000ms, 0464ms total)
T08E4 000:705 JLINK_WriteReg(R8, 0x00000000)  returns 0x00 (0000ms, 0464ms total)
T08E4 000:705 JLINK_WriteReg(R9, 0x20000230)  returns 0x00 (0000ms, 0464ms total)
T08E4 000:705 JLINK_WriteReg(R10, 0x00000000)  returns 0x00 (0000ms, 0464ms total)
T08E4 000:705 JLINK_WriteReg(R11, 0x00000000)  returns 0x00 (0000ms, 0464ms total)
T08E4 000:705 JLINK_WriteReg(R12, 0x00000000)  returns 0x00 (0000ms, 0464ms total)
T08E4 000:705 JLINK_WriteReg(R13 (SP), 0x20002000)  returns 0x00 (0000ms, 0464ms total)
T08E4 000:705 JLINK_WriteReg(R14, 0x20000001)  returns 0x00 (0000ms, 0464ms total)
T08E4 000:705 JLINK_WriteReg(R15 (PC), 0x2000011A)  returns 0x00 (0000ms, 0464ms total)
T08E4 000:705 JLINK_WriteReg(XPSR, 0x01000000)  returns 0x00 (0000ms, 0464ms total)
T08E4 000:705 JLINK_WriteReg(MSP, 0x20002000)  returns 0x00 (0000ms, 0464ms total)
T08E4 000:705 JLINK_WriteReg(PSP, 0x20002000)  returns 0x00 (0000ms, 0464ms total)
T08E4 000:705 JLINK_WriteReg(CFBP, 0x00000000)  returns 0x00 (0000ms, 0464ms total)
T08E4 000:705 JLINK_SetBPEx(Addr = 0x20000000, Type = 0xFFFFFFF2)  returns 0x0000000E (0000ms, 0464ms total)
T08E4 000:705 JLINK_Go() -- CPU_ReadMem(4 bytes @ 0xE0001000) (0002ms, 0466ms total)
T08E4 000:707 JLINK_IsHalted()  returns FALSE (0000ms, 0466ms total)
T08E4 000:709 JLINK_IsHalted() -- CPU_ReadMem(2 bytes @ 0x20000000)  returns TRUE (0003ms, 0469ms total)
T08E4 000:712 JLINK_ReadReg(R15 (PC))  returns 0x20000000 (0000ms, 0466ms total)
T08E4 000:712 JLINK_ClrBPEx(BPHandle = 0x0000000E)  returns 0x00 (0000ms, 0466ms total)
T08E4 000:712 JLINK_ReadReg(R0)  returns 0x00000000 (0000ms, 0466ms total)
T08E4 000:712 JLINK_WriteReg(R0, 0x00030000)  returns 0x00 (0000ms, 0466ms total)
T08E4 000:712 JLINK_WriteReg(R1, 0x00001000)  returns 0x00 (0000ms, 0466ms total)
T08E4 000:712 JLINK_WriteReg(R2, 0x000000FF)  returns 0x00 (0000ms, 0466ms total)
T08E4 000:712 JLINK_WriteReg(R3, 0x00000000)  returns 0x00 (0000ms, 0466ms total)
T08E4 000:712 JLINK_WriteReg(R4, 0x00000000)  returns 0x00 (0000ms, 0466ms total)
T08E4 000:712 JLINK_WriteReg(R5, 0x00000000)  returns 0x00 (0000ms, 0466ms total)
T08E4 000:712 JLINK_WriteReg(R6, 0x00000000)  returns 0x00 (0000ms, 0466ms total)
T08E4 000:712 JLINK_WriteReg(R7, 0x00000000)  returns 0x00 (0000ms, 0466ms total)
T08E4 000:712 JLINK_WriteReg(R8, 0x00000000)  returns 0x00 (0000ms, 0466ms total)
T08E4 000:712 JLINK_WriteReg(R9, 0x20000230)  returns 0x00 (0000ms, 0466ms total)
T08E4 000:712 JLINK_WriteReg(R10, 0x00000000)  returns 0x00 (0001ms, 0467ms total)
T08E4 000:713 JLINK_WriteReg(R11, 0x00000000)  returns 0x00 (0000ms, 0467ms total)
T08E4 000:713 JLINK_WriteReg(R12, 0x00000000)  returns 0x00 (0000ms, 0467ms total)
T08E4 000:713 JLINK_WriteReg(R13 (SP), 0x20002000)  returns 0x00 (0000ms, 0467ms total)
T08E4 000:713 JLINK_WriteReg(R14, 0x20000001)  returns 0x00 (0000ms, 0467ms total)
T08E4 000:713 JLINK_WriteReg(R15 (PC), 0x2000011A)  returns 0x00 (0000ms, 0467ms total)
T08E4 000:713 JLINK_WriteReg(XPSR, 0x01000000)  returns 0x00 (0000ms, 0467ms total)
T08E4 000:713 JLINK_WriteReg(MSP, 0x20002000)  returns 0x00 (0000ms, 0467ms total)
T08E4 000:713 JLINK_WriteReg(PSP, 0x20002000)  returns 0x00 (0000ms, 0467ms total)
T08E4 000:713 JLINK_WriteReg(CFBP, 0x00000000)  returns 0x00 (0000ms, 0467ms total)
T08E4 000:713 JLINK_SetBPEx(Addr = 0x20000000, Type = 0xFFFFFFF2)  returns 0x0000000F (0000ms, 0467ms total)
T08E4 000:713 JLINK_Go() -- CPU_ReadMem(4 bytes @ 0xE0001000) (0001ms, 0468ms total)
T08E4 000:714 JLINK_IsHalted()  returns FALSE (0001ms, 0469ms total)
T08E4 000:717 JLINK_IsHalted() -- CPU_ReadMem(2 bytes @ 0x20000000)  returns TRUE (0003ms, 0471ms total)
T08E4 000:720 JLINK_ReadReg(R15 (PC))  returns 0x20000000 (0000ms, 0468ms total)
T08E4 000:720 JLINK_ClrBPEx(BPHandle = 0x0000000F)  returns 0x00 (0000ms, 0468ms total)
T08E4 000:720 JLINK_ReadReg(R0)  returns 0x00000000 (0000ms, 0468ms total)
T08E4 000:720 JLINK_WriteReg(R0, 0x00000001)  returns 0x00 (0000ms, 0468ms total)
T08E4 000:720 JLINK_WriteReg(R1, 0x00001000)  returns 0x00 (0000ms, 0468ms total)
T08E4 000:720 JLINK_WriteReg(R2, 0x000000FF)  returns 0x00 (0000ms, 0468ms total)
T08E4 000:720 JLINK_WriteReg(R3, 0x00000000)  returns 0x00 (0001ms, 0469ms total)
T08E4 000:721 JLINK_WriteReg(R4, 0x00000000)  returns 0x00 (0000ms, 0469ms total)
T08E4 000:721 JLINK_WriteReg(R5, 0x00000000)  returns 0x00 (0000ms, 0469ms total)
T08E4 000:721 JLINK_WriteReg(R6, 0x00000000)  returns 0x00 (0000ms, 0469ms total)
T08E4 000:721 JLINK_WriteReg(R7, 0x00000000)  returns 0x00 (0000ms, 0469ms total)
T08E4 000:721 JLINK_WriteReg(R8, 0x00000000)  returns 0x00 (0000ms, 0469ms total)
T08E4 000:721 JLINK_WriteReg(R9, 0x20000230)  returns 0x00 (0000ms, 0469ms total)
T08E4 000:721 JLINK_WriteReg(R10, 0x00000000)  returns 0x00 (0000ms, 0469ms total)
T08E4 000:721 JLINK_WriteReg(R11, 0x00000000)  returns 0x00 (0000ms, 0469ms total)
T08E4 000:721 JLINK_WriteReg(R12, 0x00000000)  returns 0x00 (0000ms, 0469ms total)
T08E4 000:721 JLINK_WriteReg(R13 (SP), 0x20002000)  returns 0x00 (0000ms, 0469ms total)
T08E4 000:721 JLINK_WriteReg(R14, 0x20000001)  returns 0x00 (0000ms, 0469ms total)
T08E4 000:721 JLINK_WriteReg(R15 (PC), 0x2000008E)  returns 0x00 (0000ms, 0469ms total)
T08E4 000:721 JLINK_WriteReg(XPSR, 0x01000000)  returns 0x00 (0000ms, 0469ms total)
T08E4 000:721 JLINK_WriteReg(MSP, 0x20002000)  returns 0x00 (0000ms, 0469ms total)
T08E4 000:721 JLINK_WriteReg(PSP, 0x20002000)  returns 0x00 (0000ms, 0469ms total)
T08E4 000:721 JLINK_WriteReg(CFBP, 0x00000000)  returns 0x00 (0000ms, 0469ms total)
T08E4 000:721 JLINK_SetBPEx(Addr = 0x20000000, Type = 0xFFFFFFF2)  returns 0x00000010 (0000ms, 0469ms total)
T08E4 000:721 JLINK_Go() -- CPU_ReadMem(4 bytes @ 0xE0001000) (0002ms, 0471ms total)
T08E4 000:723 JLINK_IsHalted() -- CPU_ReadMem(2 bytes @ 0x20000000)  returns TRUE (0004ms, 0475ms total)
T08E4 000:727 JLINK_ReadReg(R15 (PC))  returns 0x20000000 (0000ms, 0471ms total)
T08E4 000:727 JLINK_ClrBPEx(BPHandle = 0x00000010)  returns 0x00 (0000ms, 0471ms total)
T08E4 000:727 JLINK_ReadReg(R0)  returns 0x00000000 (0000ms, 0471ms total)
T08E4 000:796 JLINK_WriteMem(0x20000000, 0x0234 Bytes, ...) - Data: 00 BE 0A E0 0D 78 2D 06 68 40 08 24 40 00 00 D3 ... -- CPU_WriteMem(564 bytes @ 0x20000000)  returns 0x234 (0004ms, 0475ms total)
T08E4 000:800 JLINK_WriteReg(R0, 0x00000000)  returns 0x00 (0000ms, 0475ms total)
T08E4 000:800 JLINK_WriteReg(R1, 0x03D09000)  returns 0x00 (0000ms, 0475ms total)
T08E4 000:800 JLINK_WriteReg(R2, 0x00000002)  returns 0x00 (0000ms, 0475ms total)
T08E4 000:800 JLINK_WriteReg(R3, 0x00000000)  returns 0x00 (0000ms, 0475ms total)
T08E4 000:800 JLINK_WriteReg(R4, 0x00000000)  returns 0x00 (0000ms, 0475ms total)
T08E4 000:800 JLINK_WriteReg(R5, 0x00000000)  returns 0x00 (0000ms, 0475ms total)
T08E4 000:800 JLINK_WriteReg(R6, 0x00000000)  returns 0x00 (0000ms, 0475ms total)
T08E4 000:800 JLINK_WriteReg(R7, 0x00000000)  returns 0x00 (0000ms, 0475ms total)
T08E4 000:800 JLINK_WriteReg(R8, 0x00000000)  returns 0x00 (0000ms, 0475ms total)
T08E4 000:800 JLINK_WriteReg(R9, 0x20000230)  returns 0x00 (0000ms, 0475ms total)
T08E4 000:800 JLINK_WriteReg(R10, 0x00000000)  returns 0x00 (0000ms, 0475ms total)
T08E4 000:801 JLINK_WriteReg(R11, 0x00000000)  returns 0x00 (0000ms, 0475ms total)
T08E4 000:801 JLINK_WriteReg(R12, 0x00000000)  returns 0x00 (0000ms, 0475ms total)
T08E4 000:801 JLINK_WriteReg(R13 (SP), 0x20002000)  returns 0x00 (0000ms, 0475ms total)
T08E4 000:801 JLINK_WriteReg(R14, 0x20000001)  returns 0x00 (0000ms, 0475ms total)
T08E4 000:801 JLINK_WriteReg(R15 (PC), 0x2000003C)  returns 0x00 (0000ms, 0475ms total)
T08E4 000:801 JLINK_WriteReg(XPSR, 0x01000000)  returns 0x00 (0000ms, 0475ms total)
T08E4 000:801 JLINK_WriteReg(MSP, 0x20002000)  returns 0x00 (0000ms, 0475ms total)
T08E4 000:801 JLINK_WriteReg(PSP, 0x20002000)  returns 0x00 (0000ms, 0475ms total)
T08E4 000:801 JLINK_WriteReg(CFBP, 0x00000000)  returns 0x00 (0000ms, 0475ms total)
T08E4 000:801 JLINK_SetBPEx(Addr = 0x20000000, Type = 0xFFFFFFF2) -- CPU_ReadMem(2 bytes @ 0x20000000)  returns 0x00000011 (0001ms, 0476ms total)
T08E4 000:802 JLINK_Go() -- CPU_WriteMem(2 bytes @ 0x20000000) -- CPU_ReadMem(4 bytes @ 0xE0001000) (0002ms, 0478ms total)
T08E4 000:804 JLINK_IsHalted() -- CPU_ReadMem(2 bytes @ 0x20000000)  returns TRUE (0004ms, 0482ms total)
T08E4 000:808 JLINK_ReadReg(R15 (PC))  returns 0x20000000 (0000ms, 0478ms total)
T08E4 000:808 JLINK_ClrBPEx(BPHandle = 0x00000011)  returns 0x00 (0000ms, 0478ms total)
T08E4 000:808 JLINK_ReadReg(R0)  returns 0x00000000 (0000ms, 0478ms total)
T08E4 000:809 JLINK_WriteMem(0x20000234, 0x01CC Bytes, ...) - Data: 98 79 00 20 E9 35 02 00 F1 35 02 00 F3 35 02 00 ... -- CPU_WriteMem(460 bytes @ 0x20000234)  returns 0x1CC (0003ms, 0481ms total)
T08E4 000:812 JLINK_WriteMem(0x20000400, 0x0400 Bytes, ...) - Data: 00 00 00 00 00 00 00 00 00 00 00 00 00 00 00 00 ... -- CPU_WriteMem(1024 bytes @ 0x20000400)  returns 0x400 (0007ms, 0488ms total)
T08E4 000:820 JLINK_WriteMem(0x20000800, 0x0400 Bytes, ...) - Data: 30 B4 04 46 54 E8 00 0F A0 EB 01 05 44 E8 00 53 ... -- CPU_WriteMem(1024 bytes @ 0x20000800)  returns 0x400 (0006ms, 0494ms total)
T08E4 000:826 JLINK_WriteMem(0x20000C00, 0x0400 Bytes, ...) - Data: 7F 00 64 1C 08 2C EB D3 00 2E 67 DA 4F F0 FF 30 ... -- CPU_WriteMem(1024 bytes @ 0x20000C00)  returns 0x400 (0006ms, 0500ms total)
T08E4 000:832 JLINK_WriteMem(0x20001000, 0x0234 Bytes, ...) - Data: 01 78 01 24 10 1D 4F F0 80 55 06 29 0B D1 16 78 ... -- CPU_WriteMem(564 bytes @ 0x20001000)  returns 0x234 (0004ms, 0504ms total)
T08E4 000:836 JLINK_WriteReg(R0, 0x00023000)  returns 0x00 (0000ms, 0504ms total)
T08E4 000:836 JLINK_WriteReg(R1, 0x00001000)  returns 0x00 (0000ms, 0504ms total)
T08E4 000:836 JLINK_WriteReg(R2, 0x20000234)  returns 0x00 (0000ms, 0504ms total)
T08E4 000:836 JLINK_WriteReg(R3, 0x00000000)  returns 0x00 (0000ms, 0504ms total)
T08E4 000:836 JLINK_WriteReg(R4, 0x00000000)  returns 0x00 (0000ms, 0504ms total)
T08E4 000:836 JLINK_WriteReg(R5, 0x00000000)  returns 0x00 (0000ms, 0504ms total)
T08E4 000:836 JLINK_WriteReg(R6, 0x00000000)  returns 0x00 (0000ms, 0504ms total)
T08E4 000:836 JLINK_WriteReg(R7, 0x00000000)  returns 0x00 (0000ms, 0504ms total)
